<Qucs Dataset 0.0.15>
<indep x 10>
  +5.00000000000e+00
  +1.00000000000e+01
  +1.50000000000e+01
  +2.00000000000e+01
  +2.50000000000e+01
  +3.00000000000e+01
  +3.50000000000e+01
  +4.00000000000e+01
  +4.50000000000e+01
  +5.00000000000e+01
</indep>
<dep V1.I x>
  -1.93750000000e-01
  -1.93750000000e-01
  -1.93750000000e-01
  -1.93750000000e-01
  -1.93750000000e-01
  -1.93750000000e-01
  -1.93750000000e-01
  -1.93750000000e-01
  -1.93750000000e-01
  -1.93750000000e-01
</dep>
<dep Izeja.V x>
  +5.81250000000e+00
  +5.81250000000e+00
  +5.81250000000e+00
  +5.81250000000e+00
  +5.81250000000e+00
  +5.81250000000e+00
  +5.81250000000e+00
  +5.81250000000e+00
  +5.81250000000e+00
  +5.81250000000e+00
</dep>
<dep _net0.V x>
  +1.55000000000e+01
  +1.55000000000e+01
  +1.55000000000e+01
  +1.55000000000e+01
  +1.55000000000e+01
  +1.55000000000e+01
  +1.55000000000e+01
  +1.55000000000e+01
  +1.55000000000e+01
  +1.55000000000e+01
</dep>
